
T11E8 000:310 SEGGER J-Link V5.12f Log File (0000ms, 0277ms total)
T11E8 000:310 DLL Compiled: May 17 2016 16:03:35 (0000ms, 0277ms total)
T11E8 000:310 Logging started @ 2017-08-10 15:30 (0000ms, 0277ms total)
T11E8 000:310 JLINK_SetWarnOutHandler(...) (0000ms, 0277ms total)
T11E8 000:310 JLINK_OpenEx(...)
Firmware: J-Link OB-SAM3U128-V2-NordicSemi compiled Mar 15 2016 18:03:17
Hardware: V1.00
S/N: 681516387  returns O.K. (0274ms, 0551ms total)
T11E8 000:584 JLINK_SetErrorOutHandler(...) (0000ms, 0551ms total)
T11E8 000:584 JLINK_ExecCommand("ProjectFile = "E:\nordir_code\MXN003_FACTORY\nRF5_SDK_12.3.0_d7731ad\nRF5_SDK_12.3.0_d7731ad\examples\ble_peripheral\ble_app_beacon\pca10028\s130\arm5_no_packs\JLinkSettings.ini"", ...)  returns 0x00 (0002ms, 0553ms total)
T11E8 000:600 JLINK_ExecCommand("Device = nRF51422_xxAC", ...)Device "NRF51422_XXAC" selected.  returns 0x00 (0018ms, 0572ms total)
T11E8 000:619 JLINK_ExecCommand("DisableConnectionTimeout", ...)  returns 0x01 (0000ms, 0573ms total)
T11E8 000:620 JLINK_GetHardwareVersion()  returns 0x2710 (0000ms, 0573ms total)
T11E8 000:620 JLINK_GetDLLVersion()  returns 51206 (0000ms, 0573ms total)
T11E8 000:620 JLINK_GetFirmwareString(...) (0000ms, 0573ms total)
T11E8 000:635 JLINK_GetDLLVersion()  returns 51206 (0001ms, 0574ms total)
T11E8 000:636 JLINK_GetCompileDateTime() (0000ms, 0574ms total)
T11E8 000:641 JLINK_GetFirmwareString(...) (0000ms, 0574ms total)
T11E8 000:646 JLINK_GetHardwareVersion()  returns 0x2710 (0001ms, 0575ms total)
T11E8 000:663 JLINK_TIF_Select(JLINKARM_TIF_SWD)  returns 0x00 (0001ms, 0576ms total)
T11E8 000:664 JLINK_SetSpeed(5000) (0001ms, 0577ms total)
T11E8 000:665 JLINK_GetId() >0x108 TIF>Found SWD-DP with ID 0x0BB11477 >0x0D TIF> >0x28 TIF> >0x0D TIF> >0x28 TIF> >0x0D TIF> >0x28 TIF> >0x0D TIF> >0x28 TIF> >0x35 TIF> >0x0D TIF> >0x28 TIF> >0x0D TIF> >0x28 TIF> >0x35 TIF> >0x35 TIF> >0x35 TIF> >0x0D TIF> >0x28 TIF> >0x0D TIF> >0x28 TIF> >0x0D TIF> >0x28 TIF> >0x35 TIF> >0x35 TIF> >0x0D TIF> >0x28 TIF> >0x35 TIF> >0x35 TIF>Found Cortex-M0 r0p0, Little endian. -- CPU_ReadMem(4 bytes @ 0xE000EDF0) -- CPU_ReadMem(4 bytes @ 0xE0002000)
FPUnit: 4 code (BP) slots and 0 literal slots -- CPU_ReadMem(4 bytes @ 0xE000EDFC) -- CPU_ReadMem(4 bytes @ 0xE0001000) -- CPU_WriteMem(4 bytes @ 0xE0001000)CoreSight components:ROMTbl 0 @ F0000000 -- CPU_ReadMem(16 bytes @ 0xF0000000) -- CPU_ReadMem(16 bytes @ 0xE00FFFF0) -- CPU_ReadMem(16 bytes @ 0xE00FFFE0)ROMTbl 0 [0]: F00FF000, CID: B105100D, PID: 000BB471 ROM TableROMTbl 1 @ E00FF000 -- CPU_ReadMem(16 bytes @ 0xE00FF000) -- CPU_ReadMem(16 bytes @ 0xE000EFF0) -- CPU_ReadMem(16 bytes @ 0xE000EFE0)
ROMTbl 1 [0]: FFF0F000, CID: B105E00D, PID: 000BB008 SCS -- CPU_ReadMem(16 bytes @ 0xE0001FF0) -- CPU_ReadMem(16 bytes @ 0xE0001FE0)ROMTbl 1 [1]: FFF02000, CID: B105E00D, PID: 000BB00A DWT -- CPU_ReadMem(16 bytes @ 0xE0002FF0) -- CPU_ReadMem(16 bytes @ 0xE0002FE0)ROMTbl 1 [2]: FFF03000, CID: B105E00D, PID: 000BB00B FPB -- CPU_ReadMem(16 bytes @ 0xF0002FF0) -- CPU_ReadMem(16 bytes @ 0xF0002FE0)ROMTbl 0 [1]: 00002000, CID: B105900D, PID: 000BB9A3 ??? >0x35 TIF>  returns 0x0BB11477 (0088ms, 0665ms total)
T11E8 000:753 JLINK_GetDLLVersion()  returns 51206 (0000ms, 0665ms total)
T11E8 000:753 JLINK_CORE_GetFound()  returns 0x60000FF (0000ms, 0665ms total)
T11E8 000:753 JLINK_GetDebugInfo(0x100) -- Value=0xF0000000  returns 0x00 (0000ms, 0665ms total)
T11E8 000:758 JLINK_GetDebugInfo(0x100) -- Value=0xF0000000  returns 0x00 (0000ms, 0665ms total)
T11E8 000:758 JLINK_GetDebugInfo(0x101) -- Value=0x00000000  returns 0x00 (0000ms, 0665ms total)
T11E8 000:758 JLINK_ReadMem (0xE0041FF0, 0x0010 Bytes, ...) -- CPU is running -- CPU_ReadMem(16 bytes @ 0xE0041FF0) - Data: 00 00 00 00 00 00 00 00 00 00 00 00 00 00 00 00  returns 0x00 (0001ms, 0666ms total)
T11E8 000:759 JLINK_GetDebugInfo(0x102) -- Value=0x00000000  returns 0x00 (0000ms, 0666ms total)
T11E8 000:759 JLINK_GetDebugInfo(0x103) -- Value=0x00000000  returns 0x00 (0000ms, 0666ms total)
T11E8 000:759 JLINK_ReadMem (0xE0040FF0, 0x0010 Bytes, ...) -- CPU is running -- CPU_ReadMem(16 bytes @ 0xE0040FF0) - Data: 00 00 00 00 00 00 00 00 00 00 00 00 00 00 00 00  returns 0x00 (0001ms, 0667ms total)
T11E8 000:760 JLINK_GetDebugInfo(0x104) -- Value=0xE0000000  returns 0x00 (0001ms, 0668ms total)
T11E8 000:761 JLINK_GetDebugInfo(0x105) -- Value=0xE0001000  returns 0x00 (0000ms, 0668ms total)
T11E8 000:761 JLINK_GetDebugInfo(0x106) -- Value=0xE0002000  returns 0x00 (0000ms, 0668ms total)
T11E8 000:761 JLINK_GetDebugInfo(0x107) -- Value=0xE000E000  returns 0x00 (0000ms, 0668ms total)
T11E8 000:761 JLINK_GetDebugInfo(0x10C) -- Value=0xE000EDF0  returns 0x00 (0000ms, 0668ms total)
T11E8 000:761 JLINK_ReadMemU32(0xE000ED00, 0x0001 Items, ...) -- CPU is running -- CPU_ReadMem(4 bytes @ 0xE000ED00) - Data: 00 C2 0C 41  returns 0x01 (0001ms, 0669ms total)
T11E8 000:762 JLINK_SetResetType(JLINKARM_RESET_TYPE_NORMAL)  returns JLINKARM_RESET_TYPE_NORMAL (0000ms, 0669ms total)
T11E8 000:762 JLINK_Reset() -- CPU is running -- CPU_WriteMem(4 bytes @ 0xE000EDF0) -- CPU is running -- CPU_WriteMem(4 bytes @ 0xE000EDFC) >0x35 TIF> -- CPU is running -- CPU_WriteMem(4 bytes @ 0xE000ED0C) -- CPU is running -- CPU_ReadMem(4 bytes @ 0xE000EDF0) -- CPU is running -- CPU_ReadMem(4 bytes @ 0xE000EDF0) -- CPU is running -- CPU_WriteMem(4 bytes @ 0xE000EDF0) -- CPU is running -- CPU_WriteMem(4 bytes @ 0xE000EDFC) -- CPU is running -- CPU_ReadMem(4 bytes @ 0xE000EDF0)
 -- CPU_WriteMem(4 bytes @ 0xE0002000) -- CPU_ReadMem(4 bytes @ 0xE000EDFC) -- CPU_ReadMem(4 bytes @ 0xE0001000) -- CPU_WriteMem(4 bytes @ 0xE0001000) (0027ms, 0696ms total)
T11E8 000:789 JLINK_Halt()  returns 0x00 (0000ms, 0696ms total)
T11E8 000:789 JLINK_IsHalted()  returns TRUE (0000ms, 0696ms total)
T11E8 000:789 JLINK_ReadMemU32(0xE000EDF0, 0x0001 Items, ...) -- CPU_ReadMem(4 bytes @ 0xE000EDF0) - Data: 03 00 03 00  returns 0x01 (0001ms, 0697ms total)
T11E8 000:790 JLINK_WriteU32(0xE000EDF0, 0xA05F0003) -- CPU_WriteMem(4 bytes @ 0xE000EDF0)  returns 0x00 (0001ms, 0698ms total)
T11E8 000:791 JLINK_WriteU32(0xE000EDFC, 0x01000000) -- CPU_WriteMem(4 bytes @ 0xE000EDFC)  returns 0x00 (0001ms, 0699ms total)
T11E8 000:812 JLINK_GetHWStatus(...)  returns 0x00 (0000ms, 0699ms total)
T11E8 000:825 JLINK_GetNumBPUnits(Type = 0xFFFFFF00)  returns 0x04 (0000ms, 0699ms total)
T11E8 000:825 JLINK_GetNumBPUnits(Type = 0xF0)  returns 0x2000 (0000ms, 0699ms total)
T11E8 000:825 JLINK_GetNumWPUnits()  returns 0x02 (0000ms, 0699ms total)
T11E8 000:838 JLINK_GetSpeed()  returns 0x3E8 (0000ms, 0699ms total)
T11E8 000:846 JLINK_ReadMemU32(0xE000E004, 0x0001 Items, ...) -- CPU_ReadMem(4 bytes @ 0xE000E004) - Data: 00 00 00 00  returns 0x01 (0001ms, 0700ms total)
T11E8 000:847 JLINK_Halt()  returns 0x00 (0000ms, 0700ms total)
T11E8 000:847 JLINK_IsHalted()  returns TRUE (0000ms, 0700ms total)
T11E8 000:853 JLINK_WriteMem(0x20000000, 0x0478 Bytes, ...) - Data: 00 BE 0A E0 0D 78 2D 06 68 40 08 24 40 00 00 D3 ... -- CPU_WriteMem(1144 bytes @ 0x20000000)  returns 0x478 (0016ms, 0716ms total)
T11E8 000:870 JLINK_WriteReg(R0, 0x00000000)  returns 0x00 (0000ms, 0716ms total)
T11E8 000:870 JLINK_WriteReg(R1, 0x00F42400)  returns 0x00 (0000ms, 0716ms total)
T11E8 000:870 JLINK_WriteReg(R2, 0x00000001)  returns 0x00 (0000ms, 0716ms total)
T11E8 000:870 JLINK_WriteReg(R3, 0x00000000)  returns 0x00 (0000ms, 0716ms total)
T11E8 000:870 JLINK_WriteReg(R4, 0x00000000)  returns 0x00 (0000ms, 0716ms total)
T11E8 000:870 JLINK_WriteReg(R5, 0x00000000)  returns 0x00 (0000ms, 0716ms total)
T11E8 000:870 JLINK_WriteReg(R6, 0x00000000)  returns 0x00 (0000ms, 0716ms total)
T11E8 000:870 JLINK_WriteReg(R7, 0x00000000)  returns 0x00 (0000ms, 0716ms total)
T11E8 000:870 JLINK_WriteReg(R8, 0x00000000)  returns 0x00 (0000ms, 0716ms total)
T11E8 000:870 JLINK_WriteReg(R9, 0x20000474)  returns 0x00 (0000ms, 0716ms total)
T11E8 000:870 JLINK_WriteReg(R10, 0x00000000)  returns 0x00 (0000ms, 0716ms total)
T11E8 000:870 JLINK_WriteReg(R11, 0x00000000)  returns 0x00 (0000ms, 0716ms total)
T11E8 000:870 JLINK_WriteReg(R12, 0x00000000)  returns 0x00 (0000ms, 0716ms total)
T11E8 000:870 JLINK_WriteReg(R13 (SP), 0x20002000)  returns 0x00 (0000ms, 0716ms total)
T11E8 000:870 JLINK_WriteReg(R14, 0x20000001)  returns 0x00 (0000ms, 0716ms total)
T11E8 000:870 JLINK_WriteReg(R15 (PC), 0x20000028)  returns 0x00 (0000ms, 0716ms total)
T11E8 000:870 JLINK_WriteReg(XPSR, 0x01000000)  returns 0x00 (0000ms, 0716ms total)
T11E8 000:870 JLINK_WriteReg(MSP, 0x20002000)  returns 0x00 (0000ms, 0716ms total)
T11E8 000:870 JLINK_WriteReg(PSP, 0x20002000)  returns 0x00 (0000ms, 0716ms total)
T11E8 000:870 JLINK_WriteReg(CFBP, 0x00000000)  returns 0x00 (0000ms, 0716ms total)
T11E8 000:870 JLINK_SetBPEx(Addr = 0x20000000, Type = 0xFFFFFFF2) -- CPU_ReadMem(2 bytes @ 0x20000000)  returns 0x00000001 (0001ms, 0717ms total)
T11E8 000:871 JLINK_Go() -- CPU_WriteMem(2 bytes @ 0x20000000) -- CPU_ReadMem(4 bytes @ 0xE0001000) -- CPU_WriteMem(4 bytes @ 0xE0001000) -- CPU_WriteMem(4 bytes @ 0xE0002008) -- CPU_WriteMem(4 bytes @ 0xE000200C) -- CPU_WriteMem(4 bytes @ 0xE0002010) -- CPU_WriteMem(4 bytes @ 0xE0002014) -- CPU_WriteMem(4 bytes @ 0xE0001004) (0010ms, 0727ms total)
T11E8 000:881 JLINK_IsHalted() -- CPU_ReadMem(2 bytes @ 0x20000000)  returns TRUE (0008ms, 0735ms total)
T11E8 000:889 JLINK_ReadReg(R15 (PC))  returns 0x20000000 (0000ms, 0727ms total)
T11E8 000:889 JLINK_ClrBPEx(BPHandle = 0x00000001)  returns 0x00 (0000ms, 0727ms total)
T11E8 000:889 JLINK_ReadReg(R0)  returns 0x00000000 (0000ms, 0727ms total)
T11E8 000:889 JLINK_WriteReg(R0, 0x0001B000)  returns 0x00 (0000ms, 0727ms total)
T11E8 000:889 JLINK_WriteReg(R1, 0x00000400)  returns 0x00 (0000ms, 0727ms total)
T11E8 000:889 JLINK_WriteReg(R2, 0x000000FF)  returns 0x00 (0000ms, 0727ms total)
T11E8 000:889 JLINK_WriteReg(R3, 0x00000000)  returns 0x00 (0000ms, 0727ms total)
T11E8 000:889 JLINK_WriteReg(R4, 0x00000000)  returns 0x00 (0000ms, 0727ms total)
T11E8 000:889 JLINK_WriteReg(R5, 0x00000000)  returns 0x00 (0001ms, 0728ms total)
T11E8 000:890 JLINK_WriteReg(R6, 0x00000000)  returns 0x00 (0000ms, 0728ms total)
T11E8 000:890 JLINK_WriteReg(R7, 0x00000000)  returns 0x00 (0000ms, 0728ms total)
T11E8 000:890 JLINK_WriteReg(R8, 0x00000000)  returns 0x00 (0000ms, 0728ms total)
T11E8 000:890 JLINK_WriteReg(R9, 0x20000474)  returns 0x00 (0000ms, 0728ms total)
T11E8 000:890 JLINK_WriteReg(R10, 0x00000000)  returns 0x00 (0000ms, 0728ms total)
T11E8 000:890 JLINK_WriteReg(R11, 0x00000000)  returns 0x00 (0000ms, 0728ms total)
T11E8 000:890 JLINK_WriteReg(R12, 0x00000000)  returns 0x00 (0000ms, 0728ms total)
T11E8 000:890 JLINK_WriteReg(R13 (SP), 0x20002000)  returns 0x00 (0000ms, 0728ms total)
T11E8 000:890 JLINK_WriteReg(R14, 0x20000001)  returns 0x00 (0000ms, 0728ms total)
T11E8 000:890 JLINK_WriteReg(R15 (PC), 0x20000188)  returns 0x00 (0000ms, 0728ms total)
T11E8 000:890 JLINK_WriteReg(XPSR, 0x01000000)  returns 0x00 (0000ms, 0728ms total)
T11E8 000:890 JLINK_WriteReg(MSP, 0x20002000)  returns 0x00 (0000ms, 0728ms total)
T11E8 000:890 JLINK_WriteReg(PSP, 0x20002000)  returns 0x00 (0000ms, 0728ms total)
T11E8 000:890 JLINK_WriteReg(CFBP, 0x00000000)  returns 0x00 (0000ms, 0728ms total)
T11E8 000:890 JLINK_SetBPEx(Addr = 0x20000000, Type = 0xFFFFFFF2)  returns 0x00000002 (0000ms, 0728ms total)
T11E8 000:890 JLINK_Go() -- CPU_ReadMem(4 bytes @ 0xE0001000) -- CPU_WriteMem(4 bytes @ 0xE0001000) (0005ms, 0733ms total)
T11E8 000:895 JLINK_IsHalted() -- CPU_ReadMem(2 bytes @ 0x20000000)  returns TRUE (0007ms, 0740ms total)
T11E8 000:902 JLINK_ReadReg(R15 (PC))  returns 0x20000000 (0000ms, 0733ms total)
T11E8 000:902 JLINK_ClrBPEx(BPHandle = 0x00000002)  returns 0x00 (0000ms, 0733ms total)
T11E8 000:902 JLINK_ReadReg(R0)  returns 0x00000000 (0000ms, 0733ms total)
T11E8 000:903 JLINK_WriteReg(R0, 0x0001B400)  returns 0x00 (0000ms, 0733ms total)
T11E8 000:903 JLINK_WriteReg(R1, 0x00000400)  returns 0x00 (0000ms, 0733ms total)
T11E8 000:903 JLINK_WriteReg(R2, 0x000000FF)  returns 0x00 (0000ms, 0733ms total)
T11E8 000:903 JLINK_WriteReg(R3, 0x00000000)  returns 0x00 (0000ms, 0733ms total)
T11E8 000:903 JLINK_WriteReg(R4, 0x00000000)  returns 0x00 (0000ms, 0733ms total)
T11E8 000:903 JLINK_WriteReg(R5, 0x00000000)  returns 0x00 (0000ms, 0733ms total)
T11E8 000:903 JLINK_WriteReg(R6, 0x00000000)  returns 0x00 (0000ms, 0733ms total)
T11E8 000:903 JLINK_WriteReg(R7, 0x00000000)  returns 0x00 (0000ms, 0733ms total)
T11E8 000:903 JLINK_WriteReg(R8, 0x00000000)  returns 0x00 (0000ms, 0733ms total)
T11E8 000:903 JLINK_WriteReg(R9, 0x20000474)  returns 0x00 (0000ms, 0733ms total)
T11E8 000:903 JLINK_WriteReg(R10, 0x00000000)  returns 0x00 (0000ms, 0733ms total)
T11E8 000:903 JLINK_WriteReg(R11, 0x00000000)  returns 0x00 (0000ms, 0733ms total)
T11E8 000:903 JLINK_WriteReg(R12, 0x00000000)  returns 0x00 (0000ms, 0733ms total)
T11E8 000:903 JLINK_WriteReg(R13 (SP), 0x20002000)  returns 0x00 (0000ms, 0733ms total)
T11E8 000:903 JLINK_WriteReg(R14, 0x20000001)  returns 0x00 (0000ms, 0733ms total)
T11E8 000:903 JLINK_WriteReg(R15 (PC), 0x20000188)  returns 0x00 (0000ms, 0733ms total)
T11E8 000:903 JLINK_WriteReg(XPSR, 0x01000000)  returns 0x00 (0001ms, 0734ms total)
T11E8 000:904 JLINK_WriteReg(MSP, 0x20002000)  returns 0x00 (0000ms, 0734ms total)
T11E8 000:904 JLINK_WriteReg(PSP, 0x20002000)  returns 0x00 (0000ms, 0734ms total)
T11E8 000:904 JLINK_WriteReg(CFBP, 0x00000000)  returns 0x00 (0000ms, 0734ms total)
T11E8 000:904 JLINK_SetBPEx(Addr = 0x20000000, Type = 0xFFFFFFF2)  returns 0x00000003 (0000ms, 0734ms total)
T11E8 000:904 JLINK_Go() -- CPU_ReadMem(4 bytes @ 0xE0001000) -- CPU_WriteMem(4 bytes @ 0xE0001000) (0004ms, 0738ms total)
T11E8 000:908 JLINK_IsHalted() -- CPU_ReadMem(2 bytes @ 0x20000000)  returns TRUE (0007ms, 0745ms total)
T11E8 000:915 JLINK_ReadReg(R15 (PC))  returns 0x20000000 (0000ms, 0738ms total)
T11E8 000:915 JLINK_ClrBPEx(BPHandle = 0x00000003)  returns 0x00 (0000ms, 0738ms total)
T11E8 000:915 JLINK_ReadReg(R0)  returns 0x00000000 (0000ms, 0738ms total)
T11E8 000:916 JLINK_WriteReg(R0, 0x0001B800)  returns 0x00 (0000ms, 0738ms total)
T11E8 000:916 JLINK_WriteReg(R1, 0x00000400)  returns 0x00 (0000ms, 0738ms total)
T11E8 000:916 JLINK_WriteReg(R2, 0x000000FF)  returns 0x00 (0000ms, 0738ms total)
T11E8 000:916 JLINK_WriteReg(R3, 0x00000000)  returns 0x00 (0000ms, 0738ms total)
T11E8 000:916 JLINK_WriteReg(R4, 0x00000000)  returns 0x00 (0000ms, 0738ms total)
T11E8 000:916 JLINK_WriteReg(R5, 0x00000000)  returns 0x00 (0000ms, 0738ms total)
T11E8 000:916 JLINK_WriteReg(R6, 0x00000000)  returns 0x00 (0000ms, 0738ms total)
T11E8 000:916 JLINK_WriteReg(R7, 0x00000000)  returns 0x00 (0000ms, 0738ms total)
T11E8 000:916 JLINK_WriteReg(R8, 0x00000000)  returns 0x00 (0000ms, 0738ms total)
T11E8 000:916 JLINK_WriteReg(R9, 0x20000474)  returns 0x00 (0001ms, 0739ms total)
T11E8 000:917 JLINK_WriteReg(R10, 0x00000000)  returns 0x00 (0000ms, 0739ms total)
T11E8 000:917 JLINK_WriteReg(R11, 0x00000000)  returns 0x00 (0000ms, 0739ms total)
T11E8 000:917 JLINK_WriteReg(R12, 0x00000000)  returns 0x00 (0000ms, 0739ms total)
T11E8 000:917 JLINK_WriteReg(R13 (SP), 0x20002000)  returns 0x00 (0000ms, 0739ms total)
T11E8 000:917 JLINK_WriteReg(R14, 0x20000001)  returns 0x00 (0000ms, 0739ms total)
T11E8 000:917 JLINK_WriteReg(R15 (PC), 0x20000188)  returns 0x00 (0000ms, 0739ms total)
T11E8 000:917 JLINK_WriteReg(XPSR, 0x01000000)  returns 0x00 (0000ms, 0739ms total)
T11E8 000:917 JLINK_WriteReg(MSP, 0x20002000)  returns 0x00 (0000ms, 0739ms total)
T11E8 000:917 JLINK_WriteReg(PSP, 0x20002000)  returns 0x00 (0000ms, 0739ms total)
T11E8 000:917 JLINK_WriteReg(CFBP, 0x00000000)  returns 0x00 (0000ms, 0739ms total)
T11E8 000:917 JLINK_SetBPEx(Addr = 0x20000000, Type = 0xFFFFFFF2)  returns 0x00000004 (0000ms, 0739ms total)
T11E8 000:917 JLINK_Go() -- CPU_ReadMem(4 bytes @ 0xE0001000) -- CPU_WriteMem(4 bytes @ 0xE0001000) (0004ms, 0743ms total)
T11E8 000:921 JLINK_IsHalted() -- CPU_ReadMem(2 bytes @ 0x20000000)  returns TRUE (0008ms, 0751ms total)
T11E8 000:929 JLINK_ReadReg(R15 (PC))  returns 0x20000000 (0000ms, 0743ms total)
T11E8 000:929 JLINK_ClrBPEx(BPHandle = 0x00000004)  returns 0x00 (0000ms, 0743ms total)
T11E8 000:929 JLINK_ReadReg(R0)  returns 0x00000000 (0000ms, 0743ms total)
T11E8 000:932 JLINK_WriteReg(R0, 0x0001BC00)  returns 0x00 (0000ms, 0743ms total)
T11E8 000:932 JLINK_WriteReg(R1, 0x00000400)  returns 0x00 (0000ms, 0743ms total)
T11E8 000:932 JLINK_WriteReg(R2, 0x000000FF)  returns 0x00 (0000ms, 0743ms total)
T11E8 000:932 JLINK_WriteReg(R3, 0x00000000)  returns 0x00 (0000ms, 0743ms total)
T11E8 000:932 JLINK_WriteReg(R4, 0x00000000)  returns 0x00 (0000ms, 0743ms total)
T11E8 000:932 JLINK_WriteReg(R5, 0x00000000)  returns 0x00 (0000ms, 0743ms total)
T11E8 000:932 JLINK_WriteReg(R6, 0x00000000)  returns 0x00 (0000ms, 0743ms total)
T11E8 000:932 JLINK_WriteReg(R7, 0x00000000)  returns 0x00 (0000ms, 0743ms total)
T11E8 000:932 JLINK_WriteReg(R8, 0x00000000)  returns 0x00 (0000ms, 0743ms total)
T11E8 000:932 JLINK_WriteReg(R9, 0x20000474)  returns 0x00 (0000ms, 0743ms total)
T11E8 000:932 JLINK_WriteReg(R10, 0x00000000)  returns 0x00 (0000ms, 0743ms total)
T11E8 000:932 JLINK_WriteReg(R11, 0x00000000)  returns 0x00 (0000ms, 0743ms total)
T11E8 000:932 JLINK_WriteReg(R12, 0x00000000)  returns 0x00 (0000ms, 0743ms total)
T11E8 000:932 JLINK_WriteReg(R13 (SP), 0x20002000)  returns 0x00 (0000ms, 0743ms total)
T11E8 000:932 JLINK_WriteReg(R14, 0x20000001)  returns 0x00 (0000ms, 0743ms total)
T11E8 000:932 JLINK_WriteReg(R15 (PC), 0x20000188)  returns 0x00 (0000ms, 0743ms total)
T11E8 000:932 JLINK_WriteReg(XPSR, 0x01000000)  returns 0x00 (0000ms, 0743ms total)
T11E8 000:932 JLINK_WriteReg(MSP, 0x20002000)  returns 0x00 (0000ms, 0743ms total)
T11E8 000:932 JLINK_WriteReg(PSP, 0x20002000)  returns 0x00 (0000ms, 0743ms total)
T11E8 000:932 JLINK_WriteReg(CFBP, 0x00000000)  returns 0x00 (0000ms, 0743ms total)
T11E8 000:932 JLINK_SetBPEx(Addr = 0x20000000, Type = 0xFFFFFFF2)  returns 0x00000005 (0000ms, 0743ms total)
T11E8 000:932 JLINK_Go() -- CPU_ReadMem(4 bytes @ 0xE0001000) -- CPU_WriteMem(4 bytes @ 0xE0001000) (0004ms, 0747ms total)
T11E8 000:936 JLINK_IsHalted() -- CPU_ReadMem(2 bytes @ 0x20000000)  returns TRUE (0007ms, 0754ms total)
T11E8 000:943 JLINK_ReadReg(R15 (PC))  returns 0x20000000 (0001ms, 0748ms total)
T11E8 000:944 JLINK_ClrBPEx(BPHandle = 0x00000005)  returns 0x00 (0000ms, 0748ms total)
T11E8 000:944 JLINK_ReadReg(R0)  returns 0x00000000 (0000ms, 0748ms total)
T11E8 000:944 JLINK_WriteReg(R0, 0x0001C000)  returns 0x00 (0000ms, 0748ms total)
T11E8 000:944 JLINK_WriteReg(R1, 0x00000400)  returns 0x00 (0000ms, 0748ms total)
T11E8 000:944 JLINK_WriteReg(R2, 0x000000FF)  returns 0x00 (0000ms, 0748ms total)
T11E8 000:944 JLINK_WriteReg(R3, 0x00000000)  returns 0x00 (0000ms, 0748ms total)
T11E8 000:944 JLINK_WriteReg(R4, 0x00000000)  returns 0x00 (0000ms, 0748ms total)
T11E8 000:944 JLINK_WriteReg(R5, 0x00000000)  returns 0x00 (0001ms, 0749ms total)
T11E8 000:945 JLINK_WriteReg(R6, 0x00000000)  returns 0x00 (0000ms, 0749ms total)
T11E8 000:945 JLINK_WriteReg(R7, 0x00000000)  returns 0x00 (0000ms, 0749ms total)
T11E8 000:945 JLINK_WriteReg(R8, 0x00000000)  returns 0x00 (0000ms, 0749ms total)
T11E8 000:945 JLINK_WriteReg(R9, 0x20000474)  returns 0x00 (0000ms, 0749ms total)
T11E8 000:945 JLINK_WriteReg(R10, 0x00000000)  returns 0x00 (0000ms, 0749ms total)
T11E8 000:945 JLINK_WriteReg(R11, 0x00000000)  returns 0x00 (0000ms, 0749ms total)
T11E8 000:945 JLINK_WriteReg(R12, 0x00000000)  returns 0x00 (0000ms, 0749ms total)
T11E8 000:945 JLINK_WriteReg(R13 (SP), 0x20002000)  returns 0x00 (0000ms, 0749ms total)
T11E8 000:945 JLINK_WriteReg(R14, 0x20000001)  returns 0x00 (0000ms, 0749ms total)
T11E8 000:945 JLINK_WriteReg(R15 (PC), 0x20000188)  returns 0x00 (0000ms, 0749ms total)
T11E8 000:945 JLINK_WriteReg(XPSR, 0x01000000)  returns 0x00 (0000ms, 0749ms total)
T11E8 000:945 JLINK_WriteReg(MSP, 0x20002000)  returns 0x00 (0000ms, 0749ms total)
T11E8 000:945 JLINK_WriteReg(PSP, 0x20002000)  returns 0x00 (0000ms, 0749ms total)
T11E8 000:945 JLINK_WriteReg(CFBP, 0x00000000)  returns 0x00 (0000ms, 0749ms total)
T11E8 000:945 JLINK_SetBPEx(Addr = 0x20000000, Type = 0xFFFFFFF2)  returns 0x00000006 (0000ms, 0749ms total)
T11E8 000:945 JLINK_Go() -- CPU_ReadMem(4 bytes @ 0xE0001000) -- CPU_WriteMem(4 bytes @ 0xE0001000) (0004ms, 0753ms total)
T11E8 000:950 JLINK_IsHalted() -- CPU_ReadMem(2 bytes @ 0x20000000)  returns TRUE (0007ms, 0760ms total)
T11E8 000:957 JLINK_ReadReg(R15 (PC))  returns 0x20000000 (0000ms, 0753ms total)
T11E8 000:957 JLINK_ClrBPEx(BPHandle = 0x00000006)  returns 0x00 (0000ms, 0753ms total)
T11E8 000:957 JLINK_ReadReg(R0)  returns 0x00000000 (0000ms, 0753ms total)
T11E8 000:958 JLINK_WriteReg(R0, 0x0001C400)  returns 0x00 (0000ms, 0753ms total)
T11E8 000:958 JLINK_WriteReg(R1, 0x00000400)  returns 0x00 (0000ms, 0753ms total)
T11E8 000:958 JLINK_WriteReg(R2, 0x000000FF)  returns 0x00 (0000ms, 0753ms total)
T11E8 000:958 JLINK_WriteReg(R3, 0x00000000)  returns 0x00 (0000ms, 0753ms total)
T11E8 000:958 JLINK_WriteReg(R4, 0x00000000)  returns 0x00 (0000ms, 0753ms total)
T11E8 000:958 JLINK_WriteReg(R5, 0x00000000)  returns 0x00 (0000ms, 0753ms total)
T11E8 000:958 JLINK_WriteReg(R6, 0x00000000)  returns 0x00 (0000ms, 0753ms total)
T11E8 000:958 JLINK_WriteReg(R7, 0x00000000)  returns 0x00 (0000ms, 0753ms total)
T11E8 000:958 JLINK_WriteReg(R8, 0x00000000)  returns 0x00 (0000ms, 0753ms total)
T11E8 000:958 JLINK_WriteReg(R9, 0x20000474)  returns 0x00 (0000ms, 0753ms total)
T11E8 000:958 JLINK_WriteReg(R10, 0x00000000)  returns 0x00 (0000ms, 0753ms total)
T11E8 000:958 JLINK_WriteReg(R11, 0x00000000)  returns 0x00 (0000ms, 0753ms total)
T11E8 000:958 JLINK_WriteReg(R12, 0x00000000)  returns 0x00 (0000ms, 0753ms total)
T11E8 000:958 JLINK_WriteReg(R13 (SP), 0x20002000)  returns 0x00 (0000ms, 0753ms total)
T11E8 000:958 JLINK_WriteReg(R14, 0x20000001)  returns 0x00 (0000ms, 0753ms total)
T11E8 000:958 JLINK_WriteReg(R15 (PC), 0x20000188)  returns 0x00 (0000ms, 0753ms total)
T11E8 000:958 JLINK_WriteReg(XPSR, 0x01000000)  returns 0x00 (0000ms, 0753ms total)
T11E8 000:958 JLINK_WriteReg(MSP, 0x20002000)  returns 0x00 (0000ms, 0753ms total)
T11E8 000:958 JLINK_WriteReg(PSP, 0x20002000)  returns 0x00 (0000ms, 0753ms total)
T11E8 000:958 JLINK_WriteReg(CFBP, 0x00000000)  returns 0x00 (0000ms, 0753ms total)
T11E8 000:958 JLINK_SetBPEx(Addr = 0x20000000, Type = 0xFFFFFFF2)  returns 0x00000007 (0000ms, 0753ms total)
T11E8 000:958 JLINK_Go() -- CPU_ReadMem(4 bytes @ 0xE0001000) -- CPU_WriteMem(4 bytes @ 0xE0001000) (0005ms, 0758ms total)
T11E8 000:963 JLINK_IsHalted() -- CPU_ReadMem(2 bytes @ 0x20000000)  returns TRUE (0007ms, 0765ms total)
T11E8 000:970 JLINK_ReadReg(R15 (PC))  returns 0x20000000 (0000ms, 0758ms total)
T11E8 000:970 JLINK_ClrBPEx(BPHandle = 0x00000007)  returns 0x00 (0000ms, 0758ms total)
T11E8 000:970 JLINK_ReadReg(R0)  returns 0x00000000 (0000ms, 0758ms total)
T11E8 000:970 JLINK_WriteReg(R0, 0x0001C800)  returns 0x00 (0001ms, 0759ms total)
T11E8 000:971 JLINK_WriteReg(R1, 0x00000400)  returns 0x00 (0000ms, 0759ms total)
T11E8 000:971 JLINK_WriteReg(R2, 0x000000FF)  returns 0x00 (0000ms, 0759ms total)
T11E8 000:971 JLINK_WriteReg(R3, 0x00000000)  returns 0x00 (0000ms, 0759ms total)
T11E8 000:971 JLINK_WriteReg(R4, 0x00000000)  returns 0x00 (0000ms, 0759ms total)
T11E8 000:971 JLINK_WriteReg(R5, 0x00000000)  returns 0x00 (0000ms, 0759ms total)
T11E8 000:971 JLINK_WriteReg(R6, 0x00000000)  returns 0x00 (0000ms, 0759ms total)
T11E8 000:971 JLINK_WriteReg(R7, 0x00000000)  returns 0x00 (0000ms, 0759ms total)
T11E8 000:971 JLINK_WriteReg(R8, 0x00000000)  returns 0x00 (0000ms, 0759ms total)
T11E8 000:971 JLINK_WriteReg(R9, 0x20000474)  returns 0x00 (0000ms, 0759ms total)
T11E8 000:971 JLINK_WriteReg(R10, 0x00000000)  returns 0x00 (0000ms, 0759ms total)
T11E8 000:971 JLINK_WriteReg(R11, 0x00000000)  returns 0x00 (0000ms, 0759ms total)
T11E8 000:971 JLINK_WriteReg(R12, 0x00000000)  returns 0x00 (0000ms, 0759ms total)
T11E8 000:971 JLINK_WriteReg(R13 (SP), 0x20002000)  returns 0x00 (0000ms, 0759ms total)
T11E8 000:971 JLINK_WriteReg(R14, 0x20000001)  returns 0x00 (0000ms, 0759ms total)
T11E8 000:971 JLINK_WriteReg(R15 (PC), 0x20000188)  returns 0x00 (0000ms, 0759ms total)
T11E8 000:971 JLINK_WriteReg(XPSR, 0x01000000)  returns 0x00 (0000ms, 0759ms total)
T11E8 000:971 JLINK_WriteReg(MSP, 0x20002000)  returns 0x00 (0000ms, 0759ms total)
T11E8 000:971 JLINK_WriteReg(PSP, 0x20002000)  returns 0x00 (0000ms, 0759ms total)
T11E8 000:971 JLINK_WriteReg(CFBP, 0x00000000)  returns 0x00 (0000ms, 0759ms total)
T11E8 000:971 JLINK_SetBPEx(Addr = 0x20000000, Type = 0xFFFFFFF2)  returns 0x00000008 (0000ms, 0759ms total)
T11E8 000:971 JLINK_Go() -- CPU_ReadMem(4 bytes @ 0xE0001000) -- CPU_WriteMem(4 bytes @ 0xE0001000) (0004ms, 0763ms total)
T11E8 000:975 JLINK_IsHalted() -- CPU_ReadMem(2 bytes @ 0x20000000)  returns TRUE (0008ms, 0771ms total)
T11E8 000:983 JLINK_ReadReg(R15 (PC))  returns 0x20000000 (0000ms, 0763ms total)
T11E8 000:983 JLINK_ClrBPEx(BPHandle = 0x00000008)  returns 0x00 (0000ms, 0763ms total)
T11E8 000:983 JLINK_ReadReg(R0)  returns 0x00000000 (0000ms, 0763ms total)
T11E8 000:984 JLINK_WriteReg(R0, 0x0001CC00)  returns 0x00 (0000ms, 0763ms total)
T11E8 000:984 JLINK_WriteReg(R1, 0x00000400)  returns 0x00 (0000ms, 0763ms total)
T11E8 000:984 JLINK_WriteReg(R2, 0x000000FF)  returns 0x00 (0000ms, 0763ms total)
T11E8 000:984 JLINK_WriteReg(R3, 0x00000000)  returns 0x00 (0000ms, 0763ms total)
T11E8 000:984 JLINK_WriteReg(R4, 0x00000000)  returns 0x00 (0000ms, 0763ms total)
T11E8 000:984 JLINK_WriteReg(R5, 0x00000000)  returns 0x00 (0000ms, 0763ms total)
T11E8 000:984 JLINK_WriteReg(R6, 0x00000000)  returns 0x00 (0000ms, 0763ms total)
T11E8 000:984 JLINK_WriteReg(R7, 0x00000000)  returns 0x00 (0000ms, 0763ms total)
T11E8 000:984 JLINK_WriteReg(R8, 0x00000000)  returns 0x00 (0000ms, 0763ms total)
T11E8 000:984 JLINK_WriteReg(R9, 0x20000474)  returns 0x00 (0000ms, 0763ms total)
T11E8 000:984 JLINK_WriteReg(R10, 0x00000000)  returns 0x00 (0000ms, 0763ms total)
T11E8 000:984 JLINK_WriteReg(R11, 0x00000000)  returns 0x00 (0000ms, 0763ms total)
T11E8 000:984 JLINK_WriteReg(R12, 0x00000000)  returns 0x00 (0000ms, 0763ms total)
T11E8 000:984 JLINK_WriteReg(R13 (SP), 0x20002000)  returns 0x00 (0000ms, 0763ms total)
T11E8 000:984 JLINK_WriteReg(R14, 0x20000001)  returns 0x00 (0000ms, 0763ms total)
T11E8 000:984 JLINK_WriteReg(R15 (PC), 0x20000188)  returns 0x00 (0000ms, 0763ms total)
T11E8 000:984 JLINK_WriteReg(XPSR, 0x01000000)  returns 0x00 (0000ms, 0763ms total)
T11E8 000:984 JLINK_WriteReg(MSP, 0x20002000)  returns 0x00 (0001ms, 0764ms total)
T11E8 000:985 JLINK_WriteReg(PSP, 0x20002000)  returns 0x00 (0000ms, 0764ms total)
T11E8 000:985 JLINK_WriteReg(CFBP, 0x00000000)  returns 0x00 (0000ms, 0764ms total)
T11E8 000:985 JLINK_SetBPEx(Addr = 0x20000000, Type = 0xFFFFFFF2)  returns 0x00000009 (0000ms, 0764ms total)
T11E8 000:985 JLINK_Go() -- CPU_ReadMem(4 bytes @ 0xE0001000) -- CPU_WriteMem(4 bytes @ 0xE0001000) (0004ms, 0768ms total)
T11E8 000:989 JLINK_IsHalted() -- CPU_ReadMem(2 bytes @ 0x20000000)  returns TRUE (0007ms, 0775ms total)
T11E8 000:996 JLINK_ReadReg(R15 (PC))  returns 0x20000000 (0000ms, 0768ms total)
T11E8 000:996 JLINK_ClrBPEx(BPHandle = 0x00000009)  returns 0x00 (0000ms, 0768ms total)
T11E8 000:996 JLINK_ReadReg(R0)  returns 0x00000000 (0001ms, 0769ms total)
T11E8 000:997 JLINK_WriteReg(R0, 0x0001D000)  returns 0x00 (0001ms, 0770ms total)
T11E8 000:998 JLINK_WriteReg(R1, 0x00000400)  returns 0x00 (0000ms, 0770ms total)
T11E8 000:998 JLINK_WriteReg(R2, 0x000000FF)  returns 0x00 (0000ms, 0770ms total)
T11E8 000:998 JLINK_WriteReg(R3, 0x00000000)  returns 0x00 (0000ms, 0770ms total)
T11E8 000:998 JLINK_WriteReg(R4, 0x00000000)  returns 0x00 (0000ms, 0770ms total)
T11E8 000:998 JLINK_WriteReg(R5, 0x00000000)  returns 0x00 (0000ms, 0770ms total)
T11E8 000:998 JLINK_WriteReg(R6, 0x00000000)  returns 0x00 (0000ms, 0770ms total)
T11E8 000:998 JLINK_WriteReg(R7, 0x00000000)  returns 0x00 (0000ms, 0770ms total)
T11E8 000:998 JLINK_WriteReg(R8, 0x00000000)  returns 0x00 (0000ms, 0770ms total)
T11E8 000:998 JLINK_WriteReg(R9, 0x20000474)  returns 0x00 (0000ms, 0770ms total)
T11E8 000:998 JLINK_WriteReg(R10, 0x00000000)  returns 0x00 (0000ms, 0770ms total)
T11E8 000:998 JLINK_WriteReg(R11, 0x00000000)  returns 0x00 (0000ms, 0770ms total)
T11E8 000:998 JLINK_WriteReg(R12, 0x00000000)  returns 0x00 (0000ms, 0770ms total)
T11E8 000:998 JLINK_WriteReg(R13 (SP), 0x20002000)  returns 0x00 (0000ms, 0770ms total)
T11E8 000:998 JLINK_WriteReg(R14, 0x20000001)  returns 0x00 (0000ms, 0770ms total)
T11E8 000:998 JLINK_WriteReg(R15 (PC), 0x20000188)  returns 0x00 (0000ms, 0770ms total)
T11E8 000:998 JLINK_WriteReg(XPSR, 0x01000000)  returns 0x00 (0000ms, 0770ms total)
T11E8 000:998 JLINK_WriteReg(MSP, 0x20002000)  returns 0x00 (0000ms, 0770ms total)
T11E8 000:998 JLINK_WriteReg(PSP, 0x20002000)  returns 0x00 (0000ms, 0770ms total)
T11E8 000:998 JLINK_WriteReg(CFBP, 0x00000000)  returns 0x00 (0000ms, 0770ms total)
T11E8 000:998 JLINK_SetBPEx(Addr = 0x20000000, Type = 0xFFFFFFF2)  returns 0x0000000A (0000ms, 0770ms total)
T11E8 000:998 JLINK_Go() -- CPU_ReadMem(4 bytes @ 0xE0001000) -- CPU_WriteMem(4 bytes @ 0xE0001000) (0005ms, 0775ms total)
T11E8 001:003 JLINK_IsHalted() -- CPU_ReadMem(2 bytes @ 0x20000000)  returns TRUE (0007ms, 0782ms total)
T11E8 001:010 JLINK_ReadReg(R15 (PC))  returns 0x20000000 (0000ms, 0775ms total)
T11E8 001:010 JLINK_ClrBPEx(BPHandle = 0x0000000A)  returns 0x00 (0000ms, 0775ms total)
T11E8 001:010 JLINK_ReadReg(R0)  returns 0x00000000 (0000ms, 0775ms total)
T11E8 001:011 JLINK_WriteReg(R0, 0x0001D400)  returns 0x00 (0000ms, 0775ms total)
T11E8 001:011 JLINK_WriteReg(R1, 0x00000400)  returns 0x00 (0000ms, 0775ms total)
T11E8 001:011 JLINK_WriteReg(R2, 0x000000FF)  returns 0x00 (0000ms, 0775ms total)
T11E8 001:011 JLINK_WriteReg(R3, 0x00000000)  returns 0x00 (0000ms, 0775ms total)
T11E8 001:011 JLINK_WriteReg(R4, 0x00000000)  returns 0x00 (0000ms, 0775ms total)
T11E8 001:011 JLINK_WriteReg(R5, 0x00000000)  returns 0x00 (0000ms, 0775ms total)
T11E8 001:011 JLINK_WriteReg(R6, 0x00000000)  returns 0x00 (0000ms, 0775ms total)
T11E8 001:011 JLINK_WriteReg(R7, 0x00000000)  returns 0x00 (0000ms, 0775ms total)
T11E8 001:011 JLINK_WriteReg(R8, 0x00000000)  returns 0x00 (0000ms, 0775ms total)
T11E8 001:011 JLINK_WriteReg(R9, 0x20000474)  returns 0x00 (0000ms, 0775ms total)
T11E8 001:011 JLINK_WriteReg(R10, 0x00000000)  returns 0x00 (0000ms, 0775ms total)
T11E8 001:011 JLINK_WriteReg(R11, 0x00000000)  returns 0x00 (0000ms, 0775ms total)
T11E8 001:011 JLINK_WriteReg(R12, 0x00000000)  returns 0x00 (0000ms, 0775ms total)
T11E8 001:011 JLINK_WriteReg(R13 (SP), 0x20002000)  returns 0x00 (0000ms, 0775ms total)
T11E8 001:011 JLINK_WriteReg(R14, 0x20000001)  returns 0x00 (0000ms, 0775ms total)
T11E8 001:011 JLINK_WriteReg(R15 (PC), 0x20000188)  returns 0x00 (0001ms, 0776ms total)
T11E8 001:012 JLINK_WriteReg(XPSR, 0x01000000)  returns 0x00 (0000ms, 0776ms total)
T11E8 001:012 JLINK_WriteReg(MSP, 0x20002000)  returns 0x00 (0000ms, 0776ms total)
T11E8 001:012 JLINK_WriteReg(PSP, 0x20002000)  returns 0x00 (0000ms, 0776ms total)
T11E8 001:012 JLINK_WriteReg(CFBP, 0x00000000)  returns 0x00 (0000ms, 0776ms total)
T11E8 001:012 JLINK_SetBPEx(Addr = 0x20000000, Type = 0xFFFFFFF2)  returns 0x0000000B (0000ms, 0776ms total)
T11E8 001:012 JLINK_Go() -- CPU_ReadMem(4 bytes @ 0xE0001000) -- CPU_WriteMem(4 bytes @ 0xE0001000) (0004ms, 0780ms total)
T11E8 001:016 JLINK_IsHalted() -- CPU_ReadMem(2 bytes @ 0x20000000)  returns TRUE (0008ms, 0788ms total)
T11E8 001:024 JLINK_ReadReg(R15 (PC))  returns 0x20000000 (0000ms, 0780ms total)
T11E8 001:024 JLINK_ClrBPEx(BPHandle = 0x0000000B)  returns 0x00 (0000ms, 0780ms total)
T11E8 001:024 JLINK_ReadReg(R0)  returns 0x00000000 (0000ms, 0780ms total)
T11E8 001:024 JLINK_WriteReg(R0, 0x0001D800)  returns 0x00 (0000ms, 0780ms total)
T11E8 001:024 JLINK_WriteReg(R1, 0x00000400)  returns 0x00 (0000ms, 0780ms total)
T11E8 001:024 JLINK_WriteReg(R2, 0x000000FF)  returns 0x00 (0000ms, 0780ms total)
T11E8 001:025 JLINK_WriteReg(R3, 0x00000000)  returns 0x00 (0000ms, 0781ms total)
T11E8 001:025 JLINK_WriteReg(R4, 0x00000000)  returns 0x00 (0000ms, 0781ms total)
T11E8 001:025 JLINK_WriteReg(R5, 0x00000000)  returns 0x00 (0000ms, 0781ms total)
T11E8 001:025 JLINK_WriteReg(R6, 0x00000000)  returns 0x00 (0000ms, 0781ms total)
T11E8 001:025 JLINK_WriteReg(R7, 0x00000000)  returns 0x00 (0000ms, 0781ms total)
T11E8 001:025 JLINK_WriteReg(R8, 0x00000000)  returns 0x00 (0000ms, 0781ms total)
T11E8 001:025 JLINK_WriteReg(R9, 0x20000474)  returns 0x00 (0000ms, 0781ms total)
T11E8 001:025 JLINK_WriteReg(R10, 0x00000000)  returns 0x00 (0000ms, 0781ms total)
T11E8 001:025 JLINK_WriteReg(R11, 0x00000000)  returns 0x00 (0000ms, 0781ms total)
T11E8 001:025 JLINK_WriteReg(R12, 0x00000000)  returns 0x00 (0000ms, 0781ms total)
T11E8 001:025 JLINK_WriteReg(R13 (SP), 0x20002000)  returns 0x00 (0000ms, 0781ms total)
T11E8 001:025 JLINK_WriteReg(R14, 0x20000001)  returns 0x00 (0000ms, 0781ms total)
T11E8 001:025 JLINK_WriteReg(R15 (PC), 0x20000188)  returns 0x00 (0000ms, 0781ms total)
T11E8 001:025 JLINK_WriteReg(XPSR, 0x01000000)  returns 0x00 (0000ms, 0781ms total)
T11E8 001:025 JLINK_WriteReg(MSP, 0x20002000)  returns 0x00 (0000ms, 0781ms total)
T11E8 001:025 JLINK_WriteReg(PSP, 0x20002000)  returns 0x00 (0000ms, 0781ms total)
T11E8 001:025 JLINK_WriteReg(CFBP, 0x00000000)  returns 0x00 (0000ms, 0781ms total)
T11E8 001:025 JLINK_SetBPEx(Addr = 0x20000000, Type = 0xFFFFFFF2)  returns 0x0000000C (0000ms, 0781ms total)
T11E8 001:025 JLINK_Go() -- CPU_ReadMem(4 bytes @ 0xE0001000) -- CPU_WriteMem(4 bytes @ 0xE0001000) (0005ms, 0786ms total)
T11E8 001:030 JLINK_IsHalted() -- CPU_ReadMem(2 bytes @ 0x20000000)  returns TRUE (0007ms, 0793ms total)
T11E8 001:037 JLINK_ReadReg(R15 (PC))  returns 0x20000000 (0000ms, 0786ms total)
T11E8 001:037 JLINK_ClrBPEx(BPHandle = 0x0000000C)  returns 0x00 (0000ms, 0786ms total)
T11E8 001:037 JLINK_ReadReg(R0)  returns 0x00000000 (0000ms, 0786ms total)
T11E8 001:038 JLINK_WriteReg(R0, 0x0001DC00)  returns 0x00 (0000ms, 0786ms total)
T11E8 001:038 JLINK_WriteReg(R1, 0x00000400)  returns 0x00 (0000ms, 0786ms total)
T11E8 001:038 JLINK_WriteReg(R2, 0x000000FF)  returns 0x00 (0000ms, 0786ms total)
T11E8 001:038 JLINK_WriteReg(R3, 0x00000000)  returns 0x00 (0000ms, 0786ms total)
T11E8 001:038 JLINK_WriteReg(R4, 0x00000000)  returns 0x00 (0000ms, 0786ms total)
T11E8 001:038 JLINK_WriteReg(R5, 0x00000000)  returns 0x00 (0000ms, 0786ms total)
T11E8 001:038 JLINK_WriteReg(R6, 0x00000000)  returns 0x00 (0000ms, 0786ms total)
T11E8 001:038 JLINK_WriteReg(R7, 0x00000000)  returns 0x00 (0000ms, 0786ms total)
T11E8 001:038 JLINK_WriteReg(R8, 0x00000000)  returns 0x00 (0000ms, 0786ms total)
T11E8 001:038 JLINK_WriteReg(R9, 0x20000474)  returns 0x00 (0000ms, 0786ms total)
T11E8 001:038 JLINK_WriteReg(R10, 0x00000000)  returns 0x00 (0000ms, 0786ms total)
T11E8 001:038 JLINK_WriteReg(R11, 0x00000000)  returns 0x00 (0000ms, 0786ms total)
T11E8 001:038 JLINK_WriteReg(R12, 0x00000000)  returns 0x00 (0000ms, 0786ms total)
T11E8 001:038 JLINK_WriteReg(R13 (SP), 0x20002000)  returns 0x00 (0000ms, 0786ms total)
T11E8 001:038 JLINK_WriteReg(R14, 0x20000001)  returns 0x00 (0001ms, 0787ms total)
T11E8 001:039 JLINK_WriteReg(R15 (PC), 0x20000188)  returns 0x00 (0000ms, 0787ms total)
T11E8 001:039 JLINK_WriteReg(XPSR, 0x01000000)  returns 0x00 (0000ms, 0787ms total)
T11E8 001:039 JLINK_WriteReg(MSP, 0x20002000)  returns 0x00 (0000ms, 0787ms total)
T11E8 001:039 JLINK_WriteReg(PSP, 0x20002000)  returns 0x00 (0000ms, 0787ms total)
T11E8 001:039 JLINK_WriteReg(CFBP, 0x00000000)  returns 0x00 (0000ms, 0787ms total)
T11E8 001:039 JLINK_SetBPEx(Addr = 0x20000000, Type = 0xFFFFFFF2)  returns 0x0000000D (0000ms, 0787ms total)
T11E8 001:039 JLINK_Go() -- CPU_ReadMem(4 bytes @ 0xE0001000) -- CPU_WriteMem(4 bytes @ 0xE0001000) (0004ms, 0791ms total)
T11E8 001:043 JLINK_IsHalted() -- CPU_ReadMem(2 bytes @ 0x20000000)  returns TRUE (0008ms, 0799ms total)
T11E8 001:051 JLINK_ReadReg(R15 (PC))  returns 0x20000000 (0000ms, 0791ms total)
T11E8 001:051 JLINK_ClrBPEx(BPHandle = 0x0000000D)  returns 0x00 (0000ms, 0791ms total)
T11E8 001:051 JLINK_ReadReg(R0)  returns 0x00000000 (0000ms, 0791ms total)
T11E8 001:051 JLINK_WriteReg(R0, 0x00000001)  returns 0x00 (0000ms, 0791ms total)
T11E8 001:051 JLINK_WriteReg(R1, 0x00000400)  returns 0x00 (0000ms, 0791ms total)
T11E8 001:051 JLINK_WriteReg(R2, 0x000000FF)  returns 0x00 (0000ms, 0791ms total)
T11E8 001:051 JLINK_WriteReg(R3, 0x00000000)  returns 0x00 (0000ms, 0791ms total)
T11E8 001:051 JLINK_WriteReg(R4, 0x00000000)  returns 0x00 (0000ms, 0791ms total)
T11E8 001:051 JLINK_WriteReg(R5, 0x00000000)  returns 0x00 (0000ms, 0791ms total)
T11E8 001:052 JLINK_WriteReg(R6, 0x00000000)  returns 0x00 (0000ms, 0792ms total)
T11E8 001:052 JLINK_WriteReg(R7, 0x00000000)  returns 0x00 (0000ms, 0792ms total)
T11E8 001:052 JLINK_WriteReg(R8, 0x00000000)  returns 0x00 (0000ms, 0792ms total)
T11E8 001:052 JLINK_WriteReg(R9, 0x20000474)  returns 0x00 (0000ms, 0792ms total)
T11E8 001:052 JLINK_WriteReg(R10, 0x00000000)  returns 0x00 (0000ms, 0792ms total)
T11E8 001:052 JLINK_WriteReg(R11, 0x00000000)  returns 0x00 (0000ms, 0792ms total)
T11E8 001:052 JLINK_WriteReg(R12, 0x00000000)  returns 0x00 (0000ms, 0792ms total)
T11E8 001:052 JLINK_WriteReg(R13 (SP), 0x20002000)  returns 0x00 (0000ms, 0792ms total)
T11E8 001:052 JLINK_WriteReg(R14, 0x20000001)  returns 0x00 (0000ms, 0792ms total)
T11E8 001:052 JLINK_WriteReg(R15 (PC), 0x20000058)  returns 0x00 (0000ms, 0792ms total)
T11E8 001:052 JLINK_WriteReg(XPSR, 0x01000000)  returns 0x00 (0000ms, 0792ms total)
T11E8 001:052 JLINK_WriteReg(MSP, 0x20002000)  returns 0x00 (0000ms, 0792ms total)
T11E8 001:052 JLINK_WriteReg(PSP, 0x20002000)  returns 0x00 (0000ms, 0792ms total)
T11E8 001:052 JLINK_WriteReg(CFBP, 0x00000000)  returns 0x00 (0000ms, 0792ms total)
T11E8 001:052 JLINK_SetBPEx(Addr = 0x20000000, Type = 0xFFFFFFF2)  returns 0x0000000E (0000ms, 0792ms total)
T11E8 001:052 JLINK_Go() -- CPU_ReadMem(4 bytes @ 0xE0001000) -- CPU_WriteMem(4 bytes @ 0xE0001000) (0004ms, 0796ms total)
T11E8 001:056 JLINK_IsHalted() -- CPU_ReadMem(2 bytes @ 0x20000000)  returns TRUE (0008ms, 0804ms total)
T11E8 001:064 JLINK_ReadReg(R15 (PC))  returns 0x20000000 (0000ms, 0796ms total)
T11E8 001:064 JLINK_ClrBPEx(BPHandle = 0x0000000E)  returns 0x00 (0000ms, 0796ms total)
T11E8 001:064 JLINK_ReadReg(R0)  returns 0x00000000 (0000ms, 0796ms total)
T11E8 001:133 JLINK_WriteMem(0x20000000, 0x0478 Bytes, ...) - Data: 00 BE 0A E0 0D 78 2D 06 68 40 08 24 40 00 00 D3 ... -- CPU_WriteMem(1144 bytes @ 0x20000000)  returns 0x478 (0016ms, 0812ms total)
T11E8 001:149 JLINK_WriteReg(R0, 0x00000000)  returns 0x00 (0000ms, 0812ms total)
T11E8 001:149 JLINK_WriteReg(R1, 0x00F42400)  returns 0x00 (0000ms, 0812ms total)
T11E8 001:149 JLINK_WriteReg(R2, 0x00000002)  returns 0x00 (0000ms, 0812ms total)
T11E8 001:149 JLINK_WriteReg(R3, 0x00000000)  returns 0x00 (0000ms, 0812ms total)
T11E8 001:149 JLINK_WriteReg(R4, 0x00000000)  returns 0x00 (0000ms, 0812ms total)
T11E8 001:149 JLINK_WriteReg(R5, 0x00000000)  returns 0x00 (0000ms, 0812ms total)
T11E8 001:149 JLINK_WriteReg(R6, 0x00000000)  returns 0x00 (0000ms, 0812ms total)
T11E8 001:149 JLINK_WriteReg(R7, 0x00000000)  returns 0x00 (0000ms, 0812ms total)
T11E8 001:149 JLINK_WriteReg(R8, 0x00000000)  returns 0x00 (0000ms, 0812ms total)
T11E8 001:149 JLINK_WriteReg(R9, 0x20000474)  returns 0x00 (0001ms, 0813ms total)
T11E8 001:150 JLINK_WriteReg(R10, 0x00000000)  returns 0x00 (0000ms, 0813ms total)
T11E8 001:150 JLINK_WriteReg(R11, 0x00000000)  returns 0x00 (0000ms, 0813ms total)
T11E8 001:150 JLINK_WriteReg(R12, 0x00000000)  returns 0x00 (0000ms, 0813ms total)
T11E8 001:150 JLINK_WriteReg(R13 (SP), 0x20002000)  returns 0x00 (0000ms, 0813ms total)
T11E8 001:150 JLINK_WriteReg(R14, 0x20000001)  returns 0x00 (0000ms, 0813ms total)
T11E8 001:150 JLINK_WriteReg(R15 (PC), 0x20000028)  returns 0x00 (0000ms, 0813ms total)
T11E8 001:150 JLINK_WriteReg(XPSR, 0x01000000)  returns 0x00 (0000ms, 0813ms total)
T11E8 001:150 JLINK_WriteReg(MSP, 0x20002000)  returns 0x00 (0000ms, 0813ms total)
T11E8 001:150 JLINK_WriteReg(PSP, 0x20002000)  returns 0x00 (0000ms, 0813ms total)
T11E8 001:150 JLINK_WriteReg(CFBP, 0x00000000)  returns 0x00 (0000ms, 0813ms total)
T11E8 001:150 JLINK_SetBPEx(Addr = 0x20000000, Type = 0xFFFFFFF2) -- CPU_ReadMem(2 bytes @ 0x20000000)  returns 0x0000000F (0001ms, 0814ms total)
T11E8 001:151 JLINK_Go() -- CPU_WriteMem(2 bytes @ 0x20000000) -- CPU_ReadMem(4 bytes @ 0xE0001000) -- CPU_WriteMem(4 bytes @ 0xE0001000) (0005ms, 0819ms total)
T11E8 001:156 JLINK_IsHalted() -- CPU_ReadMem(2 bytes @ 0x20000000)  returns TRUE (0008ms, 0827ms total)
T11E8 001:164 JLINK_ReadReg(R15 (PC))  returns 0x20000000 (0000ms, 0819ms total)
T11E8 001:164 JLINK_ClrBPEx(BPHandle = 0x0000000F)  returns 0x00 (0000ms, 0819ms total)
T11E8 001:164 JLINK_ReadReg(R0)  returns 0x00000000 (0000ms, 0819ms total)
T11E8 001:165 JLINK_WriteMem(0x20000478, 0x0388 Bytes, ...) - Data: E8 29 00 20 D5 B0 01 00 EF B0 01 00 F1 B0 01 00 ... -- CPU_WriteMem(904 bytes @ 0x20000478)  returns 0x388 (0013ms, 0832ms total)
T11E8 001:178 JLINK_WriteMem(0x20000800, 0x0078 Bytes, ...) - Data: 40 1E 63 E0 28 19 40 30 07 78 B9 06 89 0E 00 91 ... -- CPU_WriteMem(120 bytes @ 0x20000800)  returns 0x78 (0002ms, 0834ms total)
T11E8 001:181 JLINK_WriteReg(R0, 0x0001B000)  returns 0x00 (0000ms, 0834ms total)
T11E8 001:181 JLINK_WriteReg(R1, 0x00000400)  returns 0x00 (0000ms, 0834ms total)
T11E8 001:181 JLINK_WriteReg(R2, 0x20000478)  returns 0x00 (0000ms, 0834ms total)
T11E8 001:181 JLINK_WriteReg(R3, 0x00000000)  returns 0x00 (0000ms, 0834ms total)
T11E8 001:181 JLINK_WriteReg(R4, 0x00000000)  returns 0x00 (0000ms, 0834ms total)
T11E8 001:181 JLINK_WriteReg(R5, 0x00000000)  returns 0x00 (0000ms, 0834ms total)
T11E8 001:181 JLINK_WriteReg(R6, 0x00000000)  returns 0x00 (0000ms, 0834ms total)
T11E8 001:181 JLINK_WriteReg(R7, 0x00000000)  returns 0x00 (0000ms, 0834ms total)
T11E8 001:181 JLINK_WriteReg(R8, 0x00000000)  returns 0x00 (0000ms, 0834ms total)
T11E8 001:181 JLINK_WriteReg(R9, 0x20000474)  returns 0x00 (0000ms, 0834ms total)
T11E8 001:181 JLINK_WriteReg(R10, 0x00000000)  returns 0x00 (0000ms, 0834ms total)
T11E8 001:181 JLINK_WriteReg(R11, 0x00000000)  returns 0x00 (0001ms, 0835ms total)
T11E8 001:182 JLINK_WriteReg(R12, 0x00000000)  returns 0x00 (0000ms, 0835ms total)
T11E8 001:182 JLINK_WriteReg(R13 (SP), 0x20002000)  returns 0x00 (0000ms, 0835ms total)
T11E8 001:182 JLINK_WriteReg(R14, 0x20000001)  returns 0x00 (0000ms, 0835ms total)
T11E8 001:182 JLINK_WriteReg(R15 (PC), 0x200001C4)  returns 0x00 (0000ms, 0835ms total)
T11E8 001:182 JLINK_WriteReg(XPSR, 0x01000000)  returns 0x00 (0000ms, 0835ms total)
T11E8 001:182 JLINK_WriteReg(MSP, 0x20002000)  returns 0x00 (0000ms, 0835ms total)
T11E8 001:182 JLINK_WriteReg(PSP, 0x20002000)  returns 0x00 (0000ms, 0835ms total)
T11E8 001:182 JLINK_WriteReg(CFBP, 0x00000000)  returns 0x00 (0000ms, 0835ms total)
T11E8 001:182 JLINK_SetBPEx(Addr = 0x20000000, Type = 0xFFFFFFF2)  returns 0x00000010 (0000ms, 0835ms total)
T11E8 001:182 JLINK_Go() -- CPU_ReadMem(4 bytes @ 0xE0001000) -- CPU_WriteMem(4 bytes @ 0xE0001000) (0005ms, 0840ms total)
T11E8 001:187 JLINK_IsHalted()  returns FALSE (0001ms, 0841ms total)
T11E8 001:252 JLINK_IsHalted() -- CPU_ReadMem(2 bytes @ 0x20000000)  returns TRUE (0007ms, 0847ms total)
T11E8 001:259 JLINK_ReadReg(R15 (PC))  returns 0x20000000 (0000ms, 0840ms total)
T11E8 001:259 JLINK_ClrBPEx(BPHandle = 0x00000010)  returns 0x00 (0000ms, 0840ms total)
T11E8 001:259 JLINK_ReadReg(R0)  returns 0x00000000 (0000ms, 0840ms total)
T11E8 001:261 JLINK_WriteMem(0x20000478, 0x0388 Bytes, ...) - Data: A9 FC 00 28 02 98 02 D0 02 28 02 D0 12 E0 03 28 ... -- CPU_WriteMem(904 bytes @ 0x20000478)  returns 0x388 (0012ms, 0852ms total)
T11E8 001:273 JLINK_WriteMem(0x20000800, 0x0078 Bytes, ...) - Data: C6 68 17 46 04 46 80 68 85 1B 60 68 BD 42 06 D9 ... -- CPU_WriteMem(120 bytes @ 0x20000800)  returns 0x78 (0003ms, 0855ms total)
T11E8 001:276 JLINK_WriteReg(R0, 0x0001B400)  returns 0x00 (0000ms, 0855ms total)
T11E8 001:276 JLINK_WriteReg(R1, 0x00000400)  returns 0x00 (0000ms, 0855ms total)
T11E8 001:276 JLINK_WriteReg(R2, 0x20000478)  returns 0x00 (0000ms, 0855ms total)
T11E8 001:276 JLINK_WriteReg(R3, 0x00000000)  returns 0x00 (0000ms, 0855ms total)
T11E8 001:276 JLINK_WriteReg(R4, 0x00000000)  returns 0x00 (0000ms, 0855ms total)
T11E8 001:276 JLINK_WriteReg(R5, 0x00000000)  returns 0x00 (0000ms, 0855ms total)
T11E8 001:276 JLINK_WriteReg(R6, 0x00000000)  returns 0x00 (0000ms, 0855ms total)
T11E8 001:276 JLINK_WriteReg(R7, 0x00000000)  returns 0x00 (0000ms, 0855ms total)
T11E8 001:276 JLINK_WriteReg(R8, 0x00000000)  returns 0x00 (0000ms, 0855ms total)
T11E8 001:276 JLINK_WriteReg(R9, 0x20000474)  returns 0x00 (0000ms, 0855ms total)
T11E8 001:276 JLINK_WriteReg(R10, 0x00000000)  returns 0x00 (0000ms, 0855ms total)
T11E8 001:276 JLINK_WriteReg(R11, 0x00000000)  returns 0x00 (0000ms, 0855ms total)
T11E8 001:276 JLINK_WriteReg(R12, 0x00000000)  returns 0x00 (0000ms, 0855ms total)
T11E8 001:276 JLINK_WriteReg(R13 (SP), 0x20002000)  returns 0x00 (0000ms, 0855ms total)
T11E8 001:276 JLINK_WriteReg(R14, 0x20000001)  returns 0x00 (0000ms, 0855ms total)
T11E8 001:276 JLINK_WriteReg(R15 (PC), 0x200001C4)  returns 0x00 (0000ms, 0855ms total)
T11E8 001:276 JLINK_WriteReg(XPSR, 0x01000000)  returns 0x00 (0000ms, 0855ms total)
T11E8 001:276 JLINK_WriteReg(MSP, 0x20002000)  returns 0x00 (0001ms, 0856ms total)
T11E8 001:277 JLINK_WriteReg(PSP, 0x20002000)  returns 0x00 (0000ms, 0856ms total)
T11E8 001:277 JLINK_WriteReg(CFBP, 0x00000000)  returns 0x00 (0000ms, 0856ms total)
T11E8 001:277 JLINK_SetBPEx(Addr = 0x20000000, Type = 0xFFFFFFF2)  returns 0x00000011 (0000ms, 0856ms total)
T11E8 001:277 JLINK_Go() -- CPU_ReadMem(4 bytes @ 0xE0001000) -- CPU_WriteMem(4 bytes @ 0xE0001000) (0005ms, 0861ms total)
T11E8 001:282 JLINK_IsHalted()  returns FALSE (0001ms, 0862ms total)
T11E8 001:288 JLINK_IsHalted()  returns FALSE (0001ms, 0862ms total)
T11E8 001:290 JLINK_IsHalted()  returns FALSE (0001ms, 0862ms total)
T11E8 001:292 JLINK_IsHalted()  returns FALSE (0001ms, 0862ms total)
T11E8 001:294 JLINK_IsHalted() -- CPU_ReadMem(2 bytes @ 0x20000000)  returns TRUE (0007ms, 0868ms total)
T11E8 001:301 JLINK_ReadReg(R15 (PC))  returns 0x20000000 (0000ms, 0861ms total)
T11E8 001:301 JLINK_ClrBPEx(BPHandle = 0x00000011)  returns 0x00 (0000ms, 0861ms total)
T11E8 001:301 JLINK_ReadReg(R0)  returns 0x00000000 (0000ms, 0861ms total)
T11E8 001:304 JLINK_WriteMem(0x20000478, 0x0388 Bytes, ...) - Data: 64 1C AB 42 00 D2 1D 46 63 5D 5B 00 E3 18 30 BC ... -- CPU_WriteMem(904 bytes @ 0x20000478)  returns 0x388 (0013ms, 0874ms total)
T11E8 001:318 JLINK_WriteMem(0x20000800, 0x0078 Bytes, ...) - Data: 8C 46 9B 5C 0F 9A 52 1E 0F 92 13 70 61 46 01 43 ... -- CPU_WriteMem(120 bytes @ 0x20000800)  returns 0x78 (0002ms, 0876ms total)
T11E8 001:320 JLINK_WriteReg(R0, 0x0001B800)  returns 0x00 (0000ms, 0876ms total)
T11E8 001:320 JLINK_WriteReg(R1, 0x00000400)  returns 0x00 (0000ms, 0876ms total)
T11E8 001:320 JLINK_WriteReg(R2, 0x20000478)  returns 0x00 (0000ms, 0876ms total)
T11E8 001:320 JLINK_WriteReg(R3, 0x00000000)  returns 0x00 (0001ms, 0877ms total)
T11E8 001:321 JLINK_WriteReg(R4, 0x00000000)  returns 0x00 (0000ms, 0877ms total)
T11E8 001:321 JLINK_WriteReg(R5, 0x00000000)  returns 0x00 (0000ms, 0877ms total)
T11E8 001:321 JLINK_WriteReg(R6, 0x00000000)  returns 0x00 (0000ms, 0877ms total)
T11E8 001:321 JLINK_WriteReg(R7, 0x00000000)  returns 0x00 (0000ms, 0877ms total)
T11E8 001:321 JLINK_WriteReg(R8, 0x00000000)  returns 0x00 (0000ms, 0877ms total)
T11E8 001:321 JLINK_WriteReg(R9, 0x20000474)  returns 0x00 (0000ms, 0877ms total)
T11E8 001:321 JLINK_WriteReg(R10, 0x00000000)  returns 0x00 (0000ms, 0877ms total)
T11E8 001:321 JLINK_WriteReg(R11, 0x00000000)  returns 0x00 (0000ms, 0877ms total)
T11E8 001:321 JLINK_WriteReg(R12, 0x00000000)  returns 0x00 (0000ms, 0877ms total)
T11E8 001:321 JLINK_WriteReg(R13 (SP), 0x20002000)  returns 0x00 (0000ms, 0877ms total)
T11E8 001:321 JLINK_WriteReg(R14, 0x20000001)  returns 0x00 (0000ms, 0877ms total)
T11E8 001:321 JLINK_WriteReg(R15 (PC), 0x200001C4)  returns 0x00 (0000ms, 0877ms total)
T11E8 001:321 JLINK_WriteReg(XPSR, 0x01000000)  returns 0x00 (0000ms, 0877ms total)
T11E8 001:321 JLINK_WriteReg(MSP, 0x20002000)  returns 0x00 (0000ms, 0877ms total)
T11E8 001:321 JLINK_WriteReg(PSP, 0x20002000)  returns 0x00 (0000ms, 0877ms total)
T11E8 001:321 JLINK_WriteReg(CFBP, 0x00000000)  returns 0x00 (0000ms, 0877ms total)
T11E8 001:321 JLINK_SetBPEx(Addr = 0x20000000, Type = 0xFFFFFFF2)  returns 0x00000012 (0001ms, 0878ms total)
T11E8 001:322 JLINK_Go() -- CPU_ReadMem(4 bytes @ 0xE0001000) -- CPU_WriteMem(4 bytes @ 0xE0001000) (0010ms, 0888ms total)
T11E8 001:332 JLINK_IsHalted()  returns FALSE (0001ms, 0889ms total)
T11E8 001:347 JLINK_IsHalted() -- CPU_ReadMem(2 bytes @ 0x20000000)  returns TRUE (0007ms, 0895ms total)
T11E8 001:354 JLINK_ReadReg(R15 (PC))  returns 0x20000000 (0001ms, 0889ms total)
T11E8 001:355 JLINK_ClrBPEx(BPHandle = 0x00000012)  returns 0x00 (0000ms, 0889ms total)
T11E8 001:355 JLINK_ReadReg(R0)  returns 0x00000000 (0000ms, 0889ms total)
T11E8 001:356 JLINK_WriteMem(0x20000478, 0x0388 Bytes, ...) - Data: E0 03 0C D5 21 46 14 9B 13 9A 00 98 00 F0 42 F8 ... -- CPU_WriteMem(904 bytes @ 0x20000478)  returns 0x388 (0013ms, 0902ms total)
T11E8 001:369 JLINK_WriteMem(0x20000800, 0x0078 Bytes, ...) - Data: 01 F0 04 FE 05 00 90 D1 30 8B 00 28 0A D0 00 94 ... -- CPU_WriteMem(120 bytes @ 0x20000800)  returns 0x78 (0004ms, 0906ms total)
